
T0B04 000:005 SEGGER J-Link V6.16c Log File (0000ms, 0005ms total)
T0B04 000:005 DLL Compiled: Jun 16 2017 18:14:49 (0000ms, 0005ms total)
T0B04 000:005 Logging started @ 2020-10-24 18:40 (0000ms, 0005ms total)
T0B04 000:006 JLINK_SetWarnOutHandler(...) (0000ms, 0005ms total)
T0B04 000:006 JLINK_OpenEx(...)
Firmware: J-Link STLink V2 compiled Oct  7 2016 13:13:19
Hardware: V1.00
S/N: 771251581WEBSRV Webserver running on local port 19080 (0014ms, 0019ms total)
T0B04 000:006   returns O.K. (0014ms, 0019ms total)
T0B04 000:020 JLINK_GetEmuCaps()  returns 0x98EA5A33 (0000ms, 0019ms total)
T0B04 000:020 JLINK_TIF_GetAvailable(...) (0000ms, 0019ms total)
T0B04 000:020 JLINK_SetErrorOutHandler(...) (0000ms, 0019ms total)
T0B04 000:020 JLINK_ExecCommand("ProjectFile = "C:\Users\admin\Desktop\prog\arm\stm32f407vgt6\SDIO_CMSIS\JLinkSettings.ini"", ...).   returns 0x00 (0147ms, 0166ms total)
T0B04 000:167 JLINK_ExecCommand("Device = STM32F407VGTx", ...). Device "STM32F407VG" selected.  returns 0x00 (0003ms, 0169ms total)
T0B04 000:170 JLINK_ExecCommand("DisableConnectionTimeout", ...).   returns 0x01 (0000ms, 0169ms total)
T0B04 000:170 JLINK_GetHardwareVersion()  returns 0x2710 (0000ms, 0169ms total)
T0B04 000:170 JLINK_GetDLLVersion()  returns 61603 (0000ms, 0169ms total)
T0B04 000:170 JLINK_GetFirmwareString(...) (0000ms, 0169ms total)
T0B04 000:170 JLINK_GetDLLVersion()  returns 61603 (0000ms, 0169ms total)
T0B04 000:170 JLINK_GetCompileDateTime() (0000ms, 0169ms total)
T0B04 000:170 JLINK_GetFirmwareString(...) (0000ms, 0169ms total)
T0B04 000:170 JLINK_GetHardwareVersion()  returns 0x2710 (0000ms, 0169ms total)
T0B04 000:170 JLINK_TIF_Select(JLINKARM_TIF_SWD)  returns 0x00 (0001ms, 0170ms total)
T0B04 000:171 JLINK_SetSpeed(50000) (0000ms, 0170ms total)
T0B04 000:171 JLINK_GetId() >0x10B TIF>Found SW-DP with ID 0x4BA01477 >0x0D TIF> >0x28 TIF> >0x0D TIF> >0x28 TIF> >0x0D TIF> >0x28 TIF> >0x0D TIF> >0x28 TIF> >0x0D TIF> >0x21 TIF> >0x0D TIF> >0x28 TIF> >0x0D TIF> >0x28 TIF> >0x0D TIF> >0x28 TIF> >0x0D TIF> >0x21 TIF> >0x0D TIF> >0x21 TIF> >0x0D TIF> >0x28 TIF> >0x0D TIF> >0x21 TIF> >0x0D TIF> >0x21 TIF> >0x0D TIF> >0x28 TIF> >0x0D TIF> >0x21 TIF> >0x0D TIF> >0x21 TIF> >0x0D TIF> >0x28 TIF> >0x0D TIF> >0x21 TIF> >0x0D TIF> >0x21 TIF> >0x0D TIF> >0x28 TIF>
 >0x0D TIF> >0x21 TIF> >0x0D TIF> >0x21 TIF> >0x0D TIF> >0x28 TIF> >0x0D TIF> >0x21 TIF> >0x0D TIF> >0x21 TIF> >0x10B TIF>Found SW-DP with ID 0x4BA01477 >0x0D TIF> >0x28 TIF> >0x0D TIF> >0x28 TIF> >0x0D TIF> >0x28 TIF> >0x0D TIF> >0x28 TIF> >0x0D TIF> >0x21 TIF> >0x0D TIF> >0x28 TIF>Scanning APs, stopping at first AHB-AP found. >0x0D TIF> >0x28 TIF> >0x0D TIF> >0x21 TIF> >0x0D TIF> >0x21 TIF>AP[0] IDR: 0x24770011 (AHB-AP) >0x0D TIF> >0x28 TIF> >0x0D TIF> >0x21 TIF> >0x0D TIF> >0x21 TIF>
AHB-AP ROM: 0xE00FF000 (Base addr. of first ROM table) >0x0D TIF> >0x28 TIF> >0x0D TIF> >0x28 TIF> >0x0D TIF> >0x28 TIF> >0x0D TIF> >0x21 TIF> >0x0D TIF> >0x21 TIF> >0x0D TIF> >0x28 TIF> >0x0D TIF> >0x21 TIF> >0x0D TIF> >0x21 TIF>CPUID reg: 0x410FC241. Implementer code: 0x41 (ARM)Found Cortex-M4 r0p1, Little endian. -- CPU_ReadMem(4 bytes @ 0xE000EDF0) -- CPU_WriteMem(4 bytes @ 0xE000EDF0) -- CPU_ReadMem(4 bytes @ 0xE0002000)FPUnit: 6 code (BP) slots and 2 literal slots
 -- CPU_ReadMem(4 bytes @ 0xE000EDFC) -- CPU_WriteMem(4 bytes @ 0xE000EDFC) -- CPU_ReadMem(4 bytes @ 0xE0001000) -- CPU_WriteMem(4 bytes @ 0xE0001000) -- CPU_ReadMem(4 bytes @ 0xE000ED88) -- CPU_WriteMem(4 bytes @ 0xE000ED88) -- CPU_ReadMem(4 bytes @ 0xE000ED88) -- CPU_WriteMem(4 bytes @ 0xE000ED88)CoreSight components:ROMTbl[0] @ E00FF000 -- CPU_ReadMem(16 bytes @ 0xE00FF000) -- CPU_ReadMem(16 bytes @ 0xE000EFF0) -- CPU_ReadMem(16 bytes @ 0xE000EFE0)
ROMTbl[0][0]: E000E000, CID: B105E00D, PID: 000BB00C SCS -- CPU_ReadMem(16 bytes @ 0xE0001FF0) -- CPU_ReadMem(16 bytes @ 0xE0001FE0)ROMTbl[0][1]: E0001000, CID: B105E00D, PID: 003BB002 DWT -- CPU_ReadMem(16 bytes @ 0xE0002FF0) -- CPU_ReadMem(16 bytes @ 0xE0002FE0)ROMTbl[0][2]: E0002000, CID: B105E00D, PID: 002BB003 FPB -- CPU_ReadMem(16 bytes @ 0xE0000FF0) -- CPU_ReadMem(16 bytes @ 0xE0000FE0)ROMTbl[0][3]: E0000000, CID: B105E00D, PID: 003BB001 ITM -- CPU_ReadMem(16 bytes @ 0xE00FF010)
 -- CPU_ReadMem(16 bytes @ 0xE0040FF0) -- CPU_ReadMem(16 bytes @ 0xE0040FE0)ROMTbl[0][4]: E0040000, CID: B105900D, PID: 000BB9A1 TPIU -- CPU_ReadMem(16 bytes @ 0xE0041FF0) -- CPU_ReadMem(16 bytes @ 0xE0041FE0)ROMTbl[0][5]: E0041000, CID: B105900D, PID: 000BB925 ETM >0x0D TIF> >0x21 TIF>  returns 0x2BA01477 (0032ms, 0202ms total)
T0B04 000:203 JLINK_GetDLLVersion()  returns 61603 (0000ms, 0202ms total)
T0B04 000:203 JLINK_CORE_GetFound()  returns 0xE0000FF (0000ms, 0202ms total)
T0B04 000:203 JLINK_GetDebugInfo(0x100 = JLINKARM_ROM_TABLE_ADDR_INDEX) -- Value=0xE00FF000  returns 0x00 (0000ms, 0202ms total)
T0B04 000:203 JLINK_GetDebugInfo(0x100 = JLINKARM_ROM_TABLE_ADDR_INDEX) -- Value=0xE00FF000  returns 0x00 (0000ms, 0202ms total)
T0B04 000:203 JLINK_GetDebugInfo(0x101 = JLINKARM_DEBUG_INFO_ETM_ADDR_INDEX) -- Value=0xE0041000  returns 0x00 (0000ms, 0202ms total)
T0B04 000:203 JLINK_ReadMemEx(0xE0041FD0, 0x0020 Bytes, ..., Flags = 0x02000004) -- CPU_ReadMem(32 bytes @ 0xE0041FD0) - Data: 04 00 00 00 00 00 00 00 00 00 00 00 00 00 00 00 ...  returns 0x20 (0001ms, 0203ms total)
T0B04 000:204 JLINK_GetDebugInfo(0x102 = JLINKARM_DEBUG_INFO_MTB_ADDR_INDEX) -- Value=0x00000000  returns 0x00 (0000ms, 0203ms total)
T0B04 000:204 JLINK_GetDebugInfo(0x103 = JLINKARM_DEBUG_INFO_TPIU_ADDR_INDEX) -- Value=0xE0040000  returns 0x00 (0000ms, 0203ms total)
T0B04 000:204 JLINK_GetDebugInfo(0x104 = JLINKARM_DEBUG_INFO_ITM_ADDR_INDEX) -- Value=0xE0000000  returns 0x00 (0000ms, 0203ms total)
T0B04 000:204 JLINK_GetDebugInfo(0x105 = JLINKARM_DEBUG_INFO_DWT_ADDR_INDEX) -- Value=0xE0001000  returns 0x00 (0000ms, 0203ms total)
T0B04 000:204 JLINK_GetDebugInfo(0x106 = JLINKARM_DEBUG_INFO_FPB_ADDR_INDEX) -- Value=0xE0002000  returns 0x00 (0000ms, 0203ms total)
T0B04 000:204 JLINK_GetDebugInfo(0x107 = JLINKARM_DEBUG_INFO_NVIC_ADDR_INDEX) -- Value=0xE000E000  returns 0x00 (0000ms, 0203ms total)
T0B04 000:204 JLINK_GetDebugInfo(0x10C = JLINKARM_DEBUG_INFO_DBG_ADDR_INDEX) -- Value=0xE000EDF0  returns 0x00 (0000ms, 0203ms total)
T0B04 000:204 JLINK_ReadMemU32(0xE000EF40, 0x0001 Items, ...) -- CPU_ReadMem(4 bytes @ 0xE000EF40) - Data: 21 00 11 10  returns 0x01 (0000ms, 0203ms total)
T0B04 000:204 JLINK_ReadMemU32(0xE000EF44, 0x0001 Items, ...) -- CPU_ReadMem(4 bytes @ 0xE000EF44) - Data: 11 00 00 11  returns 0x01 (0001ms, 0204ms total)
T0B04 000:205 JLINK_ReadMemU32(0xE000ED00, 0x0001 Items, ...) -- CPU_ReadMem(4 bytes @ 0xE000ED00) - Data: 41 C2 0F 41  returns 0x01 (0000ms, 0204ms total)
T0B04 000:205 JLINK_GetDebugInfo(0x10F = JLINKARM_DEBUG_INFO_HAS_CORTEX_M_SECURITY_EXT_INDEX) -- Value=0x00000000  returns 0x00 (0000ms, 0204ms total)
T0B04 000:205 JLINK_SetResetType(JLINKARM_CM3_RESET_TYPE_NORMAL)  returns JLINKARM_CM3_RESET_TYPE_NORMAL (0000ms, 0204ms total)
T0B04 000:205 JLINK_Reset() -- CPU is running -- CPU_WriteMem(4 bytes @ 0xE000EDF0) -- CPU is running -- CPU_WriteMem(4 bytes @ 0xE000EDFC) >0x35 TIF>Setting AIRCR.SYSRESETREQ -- CPU is running -- CPU_WriteMem(4 bytes @ 0xE000ED0C) >0x0D TIF> >0x28 TIF> -- CPU_ReadMem(4 bytes @ 0xE000ED0C) -- CPU_ReadMem(4 bytes @ 0xE000EDF0) -- CPU_ReadMem(4 bytes @ 0xE000EDF0) -- CPU_ReadMem(4 bytes @ 0xE000EDF0) -- CPU is running -- CPU_WriteMem(4 bytes @ 0xE000EDF0) -- CPU is running
 -- CPU_WriteMem(4 bytes @ 0xE000EDFC) -- CPU_ReadMem(4 bytes @ 0xE000EDF0) -- CPU_WriteMem(4 bytes @ 0xE0002000) -- CPU_ReadMem(4 bytes @ 0xE000EDFC) -- CPU_ReadMem(4 bytes @ 0xE0001000) (0065ms, 0269ms total)
T0B04 000:271 JLINK_ReadReg(R15 (PC))  returns 0x08000228 (0000ms, 0269ms total)
T0B04 000:271 JLINK_ReadReg(XPSR)  returns 0x01000000 (0000ms, 0269ms total)
T0B04 000:271 JLINK_Halt()  returns 0x00 (0000ms, 0269ms total)
T0B04 000:271 JLINK_ReadMemU32(0xE000EDF0, 0x0001 Items, ...) -- CPU_ReadMem(4 bytes @ 0xE000EDF0) - Data: 03 00 03 00  returns 0x01 (0000ms, 0269ms total)
T0B04 000:271 JLINK_WriteU32(0xE000EDF0, 0xA05F0003) -- CPU_WriteMem(4 bytes @ 0xE000EDF0)  returns 0x00 (0001ms, 0270ms total)
T0B04 000:272 JLINK_WriteU32(0xE000EDFC, 0x01000000) -- CPU_WriteMem(4 bytes @ 0xE000EDFC)  returns 0x00 (0000ms, 0270ms total)
T0B04 000:272 JLINK_GetHWStatus(...)  returns 0x00 (0000ms, 0270ms total)
T0B04 000:273 JLINK_GetNumBPUnits(Type = 0xFFFFFF00)  returns 0x06 (0000ms, 0270ms total)
T0B04 000:273 JLINK_GetNumBPUnits(Type = 0xF0)  returns 0x2000 (0000ms, 0270ms total)
T0B04 000:273 JLINK_GetNumWPUnits()  returns 0x04 (0000ms, 0270ms total)
T0B04 000:273 JLINK_GetSpeed()  returns 0xFA0 (0000ms, 0270ms total)
T0B04 000:273 JLINK_ReadMemU32(0xE000E004, 0x0001 Items, ...) -- CPU_ReadMem(4 bytes @ 0xE000E004) - Data: 02 00 00 00  returns 0x01 (0000ms, 0270ms total)
T0B04 000:273 JLINK_ReadMemU32(0xE000E004, 0x0001 Items, ...) -- CPU_ReadMem(4 bytes @ 0xE000E004) - Data: 02 00 00 00  returns 0x01 (0001ms, 0271ms total)
T0B04 000:274 JLINK_WriteMemEx(0xE0001000, 0x001C Bytes, ..., Flags = 0x02000004) - Data: 01 00 00 00 00 00 00 00 00 00 00 00 00 00 00 00 ... -- CPU_WriteMem(28 bytes @ 0xE0001000)  returns 0x1C (0001ms, 0272ms total)
T0B04 000:275 JLINK_ReadReg(R15 (PC))  returns 0x08000228 (0000ms, 0272ms total)
T0B04 000:275 JLINK_ReadReg(XPSR)  returns 0x01000000 (0000ms, 0272ms total)
T0B04 000:390 JLINK_SetResetType(JLINKARM_CM3_RESET_TYPE_NORMAL)  returns JLINKARM_CM3_RESET_TYPE_NORMAL (0000ms, 0272ms total)
T0B04 000:390 JLINK_Reset() -- CPU_WriteMem(4 bytes @ 0xE000EDF0) -- CPU_WriteMem(4 bytes @ 0xE000EDFC) >0x35 TIF>Setting AIRCR.SYSRESETREQ -- CPU_WriteMem(4 bytes @ 0xE000ED0C) >0x0D TIF> >0x28 TIF> -- CPU_ReadMem(4 bytes @ 0xE000ED0C) -- CPU_ReadMem(4 bytes @ 0xE000EDF0) -- CPU_ReadMem(4 bytes @ 0xE000EDF0) -- CPU_ReadMem(4 bytes @ 0xE000EDF0) -- CPU_WriteMem(4 bytes @ 0xE000EDF0) -- CPU_WriteMem(4 bytes @ 0xE000EDFC) -- CPU_ReadMem(4 bytes @ 0xE000EDF0) -- CPU_WriteMem(4 bytes @ 0xE0002000)
 -- CPU_ReadMem(4 bytes @ 0xE000EDFC) -- CPU_ReadMem(4 bytes @ 0xE0001000) (0066ms, 0338ms total)
T0B04 000:456 JLINK_ReadReg(R15 (PC))  returns 0x08000228 (0000ms, 0338ms total)
T0B04 000:456 JLINK_ReadReg(XPSR)  returns 0x01000000 (0000ms, 0338ms total)
T0B04 000:457 JLINK_ReadMemEx(0x08000228, 0x003C Bytes, ..., Flags = 0x02000000) -- CPU_ReadMem(128 bytes @ 0x08000200) -- Updating C cache (128 bytes @ 0x08000200) -- Read from C cache (60 bytes @ 0x08000228) - Data: 09 48 80 47 09 48 00 47 FE E7 FE E7 FE E7 FE E7 ...  returns 0x3C (0002ms, 0340ms total)
T0B04 000:671 JLINK_ReadMemEx(0x40023C00, 0x0004 Bytes, ..., Flags = 0x02000004) -- CPU_ReadMem(4 bytes @ 0x40023C00) - Data: 00 00 00 00  returns 0x04 (0001ms, 0341ms total)
T0B04 000:672 JLINK_ReadMemEx(0x40023C00, 0x0004 Bytes, ..., Flags = 0x02000004) -- CPU_ReadMem(4 bytes @ 0x40023C00) - Data: 00 00 00 00  returns 0x04 (0000ms, 0341ms total)
T0B04 000:672 JLINK_ReadMemEx(0x40023C0C, 0x0008 Bytes, ..., Flags = 0x02000004) -- CPU_ReadMem(8 bytes @ 0x40023C0C) - Data: 00 00 00 00 00 00 00 80  returns 0x08 (0001ms, 0342ms total)
T0B04 000:673 JLINK_ReadMemEx(0x40023C0C, 0x0004 Bytes, ..., Flags = 0x02000004) -- CPU_ReadMem(4 bytes @ 0x40023C0C) - Data: 00 00 00 00  returns 0x04 (0000ms, 0342ms total)
T0B04 000:673 JLINK_ReadMemEx(0x40023C10, 0x0004 Bytes, ..., Flags = 0x02000004) -- CPU_ReadMem(4 bytes @ 0x40023C10) - Data: 00 00 00 80  returns 0x04 (0000ms, 0342ms total)
T0B04 000:673 JLINK_ReadMemEx(0x40023C14, 0x0004 Bytes, ..., Flags = 0x02000004) -- CPU_ReadMem(4 bytes @ 0x40023C14) - Data: ED AA FF 0F  returns 0x04 (0001ms, 0343ms total)
T0B04 000:674 JLINK_ReadMemEx(0x40023C14, 0x0004 Bytes, ..., Flags = 0x02000004) -- CPU_ReadMem(4 bytes @ 0x40023C14) - Data: ED AA FF 0F  returns 0x04 (0000ms, 0343ms total)
T0B04 000:761 JLINK_ReadMemEx(0x40020000, 0x0014 Bytes, ..., Flags = 0x02000004) -- CPU_ReadMem(20 bytes @ 0x40020000) - Data: 00 00 00 A8 00 00 00 A8 00 00 00 A8 00 00 00 A8 ...  returns 0x14 (0000ms, 0343ms total)
T0B04 000:761 JLINK_ReadMemEx(0x40020000, 0x0004 Bytes, ..., Flags = 0x02000004) -- CPU_ReadMem(4 bytes @ 0x40020000) - Data: 00 00 00 A8  returns 0x04 (0000ms, 0343ms total)
T0B04 000:761 JLINK_ReadMemEx(0x40020004, 0x0004 Bytes, ..., Flags = 0x02000004) -- CPU_ReadMem(4 bytes @ 0x40020004) - Data: 00 00 00 A8  returns 0x04 (0001ms, 0344ms total)
T0B04 000:762 JLINK_ReadMemEx(0x40020008, 0x0004 Bytes, ..., Flags = 0x02000004) -- CPU_ReadMem(4 bytes @ 0x40020008) - Data: 00 00 00 A8  returns 0x04 (0000ms, 0344ms total)
T0B04 000:762 JLINK_ReadMemEx(0x4002000C, 0x0004 Bytes, ..., Flags = 0x02000004) -- CPU_ReadMem(4 bytes @ 0x4002000C) - Data: 00 00 00 A8  returns 0x04 (0000ms, 0344ms total)
T0B04 000:762 JLINK_ReadMemEx(0x40020010, 0x0004 Bytes, ..., Flags = 0x02000004) -- CPU_ReadMem(4 bytes @ 0x40020010) - Data: 00 00 00 A8  returns 0x04 (0001ms, 0345ms total)
T0B04 000:763 JLINK_ReadMemEx(0x40020014, 0x0004 Bytes, ..., Flags = 0x02000004) -- CPU_ReadMem(4 bytes @ 0x40020014) - Data: 00 00 00 A8  returns 0x04 (0000ms, 0345ms total)
T0B04 000:763 JLINK_ReadMemEx(0x40020014, 0x0004 Bytes, ..., Flags = 0x02000004) -- CPU_ReadMem(4 bytes @ 0x40020014) - Data: 00 00 00 A8  returns 0x04 (0001ms, 0346ms total)
T0B04 000:764 JLINK_ReadMemEx(0x4002001C, 0x0008 Bytes, ..., Flags = 0x02000004) -- CPU_ReadMem(8 bytes @ 0x4002001C) - Data: 00 00 00 A8 00 00 00 A8  returns 0x08 (0000ms, 0346ms total)
T0B04 000:764 JLINK_ReadMemEx(0x4002001C, 0x0004 Bytes, ..., Flags = 0x02000004) -- CPU_ReadMem(4 bytes @ 0x4002001C) - Data: 00 00 00 A8  returns 0x04 (0000ms, 0346ms total)
T0B04 000:764 JLINK_ReadMemEx(0x40020020, 0x0004 Bytes, ..., Flags = 0x02000004) -- CPU_ReadMem(4 bytes @ 0x40020020) - Data: 00 00 00 A8  returns 0x04 (0001ms, 0347ms total)
T0B04 000:765 JLINK_ReadMemEx(0x40020024, 0x0004 Bytes, ..., Flags = 0x02000004) -- CPU_ReadMem(4 bytes @ 0x40020024) - Data: 00 00 00 A8  returns 0x04 (0000ms, 0347ms total)
T0B04 000:765 JLINK_ReadMemEx(0x40020024, 0x0004 Bytes, ..., Flags = 0x02000004) -- CPU_ReadMem(4 bytes @ 0x40020024) - Data: 00 00 00 A8  returns 0x04 (0000ms, 0347ms total)
T0B04 000:848 JLINK_ReadMemEx(0x40020800, 0x0014 Bytes, ..., Flags = 0x02000004) -- CPU_ReadMem(20 bytes @ 0x40020800) - Data: 00 00 00 00 00 00 00 00 00 00 00 00 00 00 00 00 ...  returns 0x14 (0001ms, 0348ms total)
T0B04 000:849 JLINK_ReadMemEx(0x40020800, 0x0004 Bytes, ..., Flags = 0x02000004) -- CPU_ReadMem(4 bytes @ 0x40020800) - Data: 00 00 00 00  returns 0x04 (0000ms, 0348ms total)
T0B04 000:849 JLINK_ReadMemEx(0x40020804, 0x0004 Bytes, ..., Flags = 0x02000004) -- CPU_ReadMem(4 bytes @ 0x40020804) - Data: 00 00 00 00  returns 0x04 (0000ms, 0348ms total)
T0B04 000:849 JLINK_ReadMemEx(0x40020808, 0x0004 Bytes, ..., Flags = 0x02000004) -- CPU_ReadMem(4 bytes @ 0x40020808) - Data: 00 00 00 00  returns 0x04 (0001ms, 0349ms total)
T0B04 000:850 JLINK_ReadMemEx(0x4002080C, 0x0004 Bytes, ..., Flags = 0x02000004) -- CPU_ReadMem(4 bytes @ 0x4002080C) - Data: 00 00 00 00  returns 0x04 (0000ms, 0349ms total)
T0B04 000:850 JLINK_ReadMemEx(0x40020810, 0x0004 Bytes, ..., Flags = 0x02000004) -- CPU_ReadMem(4 bytes @ 0x40020810) - Data: 00 00 00 00  returns 0x04 (0000ms, 0349ms total)
T0B04 000:850 JLINK_ReadMemEx(0x40020814, 0x0004 Bytes, ..., Flags = 0x02000004) -- CPU_ReadMem(4 bytes @ 0x40020814) - Data: 00 00 00 00  returns 0x04 (0001ms, 0350ms total)
T0B04 000:851 JLINK_ReadMemEx(0x40020814, 0x0004 Bytes, ..., Flags = 0x02000004) -- CPU_ReadMem(4 bytes @ 0x40020814) - Data: 00 00 00 00  returns 0x04 (0000ms, 0350ms total)
T0B04 000:851 JLINK_ReadMemEx(0x4002081C, 0x0008 Bytes, ..., Flags = 0x02000004) -- CPU_ReadMem(8 bytes @ 0x4002081C) - Data: 00 00 00 00 00 00 00 00  returns 0x08 (0000ms, 0350ms total)
T0B04 000:851 JLINK_ReadMemEx(0x4002081C, 0x0004 Bytes, ..., Flags = 0x02000004) -- CPU_ReadMem(4 bytes @ 0x4002081C) - Data: 00 00 00 00  returns 0x04 (0001ms, 0351ms total)
T0B04 000:852 JLINK_ReadMemEx(0x40020820, 0x0004 Bytes, ..., Flags = 0x02000004) -- CPU_ReadMem(4 bytes @ 0x40020820) - Data: 00 00 00 00  returns 0x04 (0000ms, 0351ms total)
T0B04 000:852 JLINK_ReadMemEx(0x40020824, 0x0004 Bytes, ..., Flags = 0x02000004) -- CPU_ReadMem(4 bytes @ 0x40020824) - Data: 00 00 00 00  returns 0x04 (0001ms, 0352ms total)
T0B04 000:853 JLINK_ReadMemEx(0x40020824, 0x0004 Bytes, ..., Flags = 0x02000004) -- CPU_ReadMem(4 bytes @ 0x40020824) - Data: 00 00 00 00  returns 0x04 (0000ms, 0352ms total)
T0B04 000:955 JLINK_ReadMemEx(0x40020C00, 0x0014 Bytes, ..., Flags = 0x02000004) -- CPU_ReadMem(20 bytes @ 0x40020C00) - Data: 00 00 00 00 00 00 00 00 00 00 00 00 00 00 00 00 ...  returns 0x14 (0000ms, 0352ms total)
T0B04 000:955 JLINK_ReadMemEx(0x40020C00, 0x0004 Bytes, ..., Flags = 0x02000004) -- CPU_ReadMem(4 bytes @ 0x40020C00) - Data: 00 00 00 00  returns 0x04 (0001ms, 0353ms total)
T0B04 000:956 JLINK_ReadMemEx(0x40020C04, 0x0004 Bytes, ..., Flags = 0x02000004) -- CPU_ReadMem(4 bytes @ 0x40020C04) - Data: 00 00 00 00  returns 0x04 (0000ms, 0353ms total)
T0B04 000:956 JLINK_ReadMemEx(0x40020C08, 0x0004 Bytes, ..., Flags = 0x02000004) -- CPU_ReadMem(4 bytes @ 0x40020C08) - Data: 00 00 00 00  returns 0x04 (0000ms, 0353ms total)
T0B04 000:956 JLINK_ReadMemEx(0x40020C0C, 0x0004 Bytes, ..., Flags = 0x02000004) -- CPU_ReadMem(4 bytes @ 0x40020C0C) - Data: 00 00 00 00  returns 0x04 (0001ms, 0354ms total)
T0B04 000:957 JLINK_ReadMemEx(0x40020C10, 0x0004 Bytes, ..., Flags = 0x02000004) -- CPU_ReadMem(4 bytes @ 0x40020C10) - Data: 00 00 00 00  returns 0x04 (0000ms, 0354ms total)
T0B04 000:957 JLINK_ReadMemEx(0x40020C14, 0x0004 Bytes, ..., Flags = 0x02000004) -- CPU_ReadMem(4 bytes @ 0x40020C14) - Data: 00 00 00 00  returns 0x04 (0001ms, 0355ms total)
T0B04 000:958 JLINK_ReadMemEx(0x40020C14, 0x0004 Bytes, ..., Flags = 0x02000004) -- CPU_ReadMem(4 bytes @ 0x40020C14) - Data: 00 00 00 00  returns 0x04 (0000ms, 0355ms total)
T0B04 000:958 JLINK_ReadMemEx(0x40020C1C, 0x0008 Bytes, ..., Flags = 0x02000004) -- CPU_ReadMem(8 bytes @ 0x40020C1C) - Data: 00 00 00 00 00 00 00 00  returns 0x08 (0000ms, 0355ms total)
T0B04 000:958 JLINK_ReadMemEx(0x40020C1C, 0x0004 Bytes, ..., Flags = 0x02000004) -- CPU_ReadMem(4 bytes @ 0x40020C1C) - Data: 00 00 00 00  returns 0x04 (0001ms, 0356ms total)
T0B04 000:959 JLINK_ReadMemEx(0x40020C20, 0x0004 Bytes, ..., Flags = 0x02000004) -- CPU_ReadMem(4 bytes @ 0x40020C20) - Data: 00 00 00 00  returns 0x04 (0000ms, 0356ms total)
T0B04 000:959 JLINK_ReadMemEx(0x40020C24, 0x0004 Bytes, ..., Flags = 0x02000004) -- CPU_ReadMem(4 bytes @ 0x40020C24) - Data: 00 00 00 00  returns 0x04 (0000ms, 0356ms total)
T0B04 000:959 JLINK_ReadMemEx(0x40020C24, 0x0004 Bytes, ..., Flags = 0x02000004) -- CPU_ReadMem(4 bytes @ 0x40020C24) - Data: 00 00 00 00  returns 0x04 (0001ms, 0357ms total)
T0B04 001:064 JLINK_ReadMemEx(0x40007000, 0x0004 Bytes, ..., Flags = 0x02000004) -- CPU_ReadMem(4 bytes @ 0x40007000) - Data: 00 C0 00 00  returns 0x04 (0000ms, 0357ms total)
T0B04 001:064 JLINK_ReadMemEx(0x40007000, 0x0004 Bytes, ..., Flags = 0x02000004) -- CPU_ReadMem(4 bytes @ 0x40007000) - Data: 00 C0 00 00  returns 0x04 (0001ms, 0358ms total)
T0B04 001:065 JLINK_ReadMemEx(0x40007004, 0x0004 Bytes, ..., Flags = 0x02000004) -- CPU_ReadMem(4 bytes @ 0x40007004) - Data: 00 00 00 00  returns 0x04 (0000ms, 0358ms total)
T0B04 001:065 JLINK_ReadMemEx(0x40007004, 0x0004 Bytes, ..., Flags = 0x02000004) -- CPU_ReadMem(4 bytes @ 0x40007004) - Data: 00 00 00 00  returns 0x04 (0000ms, 0358ms total)
T0B04 001:157 JLINK_ReadMemEx(0x40023800, 0x0018 Bytes, ..., Flags = 0x02000004) -- CPU_ReadMem(24 bytes @ 0x40023800) - Data: 83 80 00 00 10 30 00 24 00 00 00 00 00 00 00 00 ...  returns 0x18 (0001ms, 0359ms total)
T0B04 001:158 JLINK_ReadMemEx(0x40023800, 0x0004 Bytes, ..., Flags = 0x02000004) -- CPU_ReadMem(4 bytes @ 0x40023800) - Data: 83 80 00 00  returns 0x04 (0000ms, 0359ms total)
T0B04 001:158 JLINK_ReadMemEx(0x40023804, 0x0004 Bytes, ..., Flags = 0x02000004) -- CPU_ReadMem(4 bytes @ 0x40023804) - Data: 10 30 00 24  returns 0x04 (0000ms, 0359ms total)
T0B04 001:158 JLINK_ReadMemEx(0x40023808, 0x0004 Bytes, ..., Flags = 0x02000004) -- CPU_ReadMem(4 bytes @ 0x40023808) - Data: 00 00 00 00  returns 0x04 (0001ms, 0360ms total)
T0B04 001:159 JLINK_ReadMemEx(0x4002380C, 0x0004 Bytes, ..., Flags = 0x02000004) -- CPU_ReadMem(4 bytes @ 0x4002380C) - Data: 00 00 00 00  returns 0x04 (0000ms, 0360ms total)
T0B04 001:159 JLINK_ReadMemEx(0x40023810, 0x0004 Bytes, ..., Flags = 0x02000004) -- CPU_ReadMem(4 bytes @ 0x40023810) - Data: 00 00 00 00  returns 0x04 (0000ms, 0360ms total)
T0B04 001:159 JLINK_ReadMemEx(0x40023814, 0x0004 Bytes, ..., Flags = 0x02000004) -- CPU_ReadMem(4 bytes @ 0x40023814) - Data: 00 00 00 00  returns 0x04 (0001ms, 0361ms total)
T0B04 001:160 JLINK_ReadMemEx(0x40023818, 0x0004 Bytes, ..., Flags = 0x02000004) -- CPU_ReadMem(4 bytes @ 0x40023818) - Data: 00 00 00 00  returns 0x04 (0000ms, 0361ms total)
T0B04 001:160 JLINK_ReadMemEx(0x40023818, 0x0004 Bytes, ..., Flags = 0x02000004) -- CPU_ReadMem(4 bytes @ 0x40023818) - Data: 00 00 00 00  returns 0x04 (0000ms, 0361ms total)
T0B04 001:160 JLINK_ReadMemEx(0x40023820, 0x0004 Bytes, ..., Flags = 0x02000004) -- CPU_ReadMem(4 bytes @ 0x40023820) - Data: 00 00 00 00  returns 0x04 (0001ms, 0362ms total)
T0B04 001:161 JLINK_ReadMemEx(0x40023820, 0x0004 Bytes, ..., Flags = 0x02000004) -- CPU_ReadMem(4 bytes @ 0x40023820) - Data: 00 00 00 00  returns 0x04 (0000ms, 0362ms total)
T0B04 001:161 JLINK_ReadMemEx(0x40023824, 0x0004 Bytes, ..., Flags = 0x02000004) -- CPU_ReadMem(4 bytes @ 0x40023824) - Data: 00 00 00 00  returns 0x04 (0001ms, 0363ms total)
T0B04 001:162 JLINK_ReadMemEx(0x40023824, 0x0004 Bytes, ..., Flags = 0x02000004) -- CPU_ReadMem(4 bytes @ 0x40023824) - Data: 00 00 00 00  returns 0x04 (0000ms, 0363ms total)
T0B04 001:162 JLINK_ReadMemEx(0x40023830, 0x0008 Bytes, ..., Flags = 0x02000004) -- CPU_ReadMem(8 bytes @ 0x40023830) - Data: 00 00 10 00 00 00 00 00  returns 0x08 (0000ms, 0363ms total)
T0B04 001:162 JLINK_ReadMemEx(0x40023830, 0x0004 Bytes, ..., Flags = 0x02000004) -- CPU_ReadMem(4 bytes @ 0x40023830) - Data: 00 00 10 00  returns 0x04 (0001ms, 0364ms total)
T0B04 001:163 JLINK_ReadMemEx(0x40023834, 0x0004 Bytes, ..., Flags = 0x02000004) -- CPU_ReadMem(4 bytes @ 0x40023834) - Data: 00 00 00 00  returns 0x04 (0000ms, 0364ms total)
T0B04 001:163 JLINK_ReadMemEx(0x40023838, 0x0004 Bytes, ..., Flags = 0x02000004) -- CPU_ReadMem(4 bytes @ 0x40023838) - Data: 00 00 00 00  returns 0x04 (0000ms, 0364ms total)
T0B04 001:163 JLINK_ReadMemEx(0x40023838, 0x0004 Bytes, ..., Flags = 0x02000004) -- CPU_ReadMem(4 bytes @ 0x40023838) - Data: 00 00 00 00  returns 0x04 (0001ms, 0365ms total)
T0B04 001:164 JLINK_ReadMemEx(0x40023840, 0x0004 Bytes, ..., Flags = 0x02000004) -- CPU_ReadMem(4 bytes @ 0x40023840) - Data: 00 00 00 00  returns 0x04 (0000ms, 0365ms total)
T0B04 001:164 JLINK_ReadMemEx(0x40023840, 0x0004 Bytes, ..., Flags = 0x02000004) -- CPU_ReadMem(4 bytes @ 0x40023840) - Data: 00 00 00 00  returns 0x04 (0001ms, 0366ms total)
T0B04 001:165 JLINK_ReadMemEx(0x40023844, 0x0004 Bytes, ..., Flags = 0x02000004) -- CPU_ReadMem(4 bytes @ 0x40023844) - Data: 00 00 00 00  returns 0x04 (0000ms, 0366ms total)
T0B04 001:165 JLINK_ReadMemEx(0x40023844, 0x0004 Bytes, ..., Flags = 0x02000004) -- CPU_ReadMem(4 bytes @ 0x40023844) - Data: 00 00 00 00  returns 0x04 (0000ms, 0366ms total)
T0B04 001:165 JLINK_ReadMemEx(0x40023850, 0x0008 Bytes, ..., Flags = 0x02000004) -- CPU_ReadMem(8 bytes @ 0x40023850) - Data: FF 91 67 7E F1 00 00 00  returns 0x08 (0001ms, 0367ms total)
T0B04 001:166 JLINK_ReadMemEx(0x40023850, 0x0004 Bytes, ..., Flags = 0x02000004) -- CPU_ReadMem(4 bytes @ 0x40023850) - Data: FF 91 67 7E  returns 0x04 (0000ms, 0367ms total)
T0B04 001:166 JLINK_ReadMemEx(0x40023854, 0x0004 Bytes, ..., Flags = 0x02000004) -- CPU_ReadMem(4 bytes @ 0x40023854) - Data: F1 00 00 00  returns 0x04 (0001ms, 0368ms total)
T0B04 001:167 JLINK_ReadMemEx(0x40023858, 0x0004 Bytes, ..., Flags = 0x02000004) -- CPU_ReadMem(4 bytes @ 0x40023858) - Data: 01 00 00 00  returns 0x04 (0000ms, 0368ms total)
T0B04 001:167 JLINK_ReadMemEx(0x40023858, 0x0004 Bytes, ..., Flags = 0x02000004) -- CPU_ReadMem(4 bytes @ 0x40023858) - Data: 01 00 00 00  returns 0x04 (0000ms, 0368ms total)
T0B04 001:167 JLINK_ReadMemEx(0x40023860, 0x0004 Bytes, ..., Flags = 0x02000004) -- CPU_ReadMem(4 bytes @ 0x40023860) - Data: FF C9 FE 36  returns 0x04 (0001ms, 0369ms total)
T0B04 001:168 JLINK_ReadMemEx(0x40023860, 0x0004 Bytes, ..., Flags = 0x02000004) -- CPU_ReadMem(4 bytes @ 0x40023860) - Data: FF C9 FE 36  returns 0x04 (0000ms, 0369ms total)
T0B04 001:168 JLINK_ReadMemEx(0x40023864, 0x0004 Bytes, ..., Flags = 0x02000004) -- CPU_ReadMem(4 bytes @ 0x40023864) - Data: 33 5F 07 00  returns 0x04 (0001ms, 0370ms total)
T0B04 001:169 JLINK_ReadMemEx(0x40023864, 0x0004 Bytes, ..., Flags = 0x02000004) -- CPU_ReadMem(4 bytes @ 0x40023864) - Data: 33 5F 07 00  returns 0x04 (0000ms, 0370ms total)
T0B04 001:169 JLINK_ReadMemEx(0x40023870, 0x0004 Bytes, ..., Flags = 0x02000004) -- CPU_ReadMem(4 bytes @ 0x40023870) - Data: 00 00 00 00  returns 0x04 (0000ms, 0370ms total)
T0B04 001:169 JLINK_ReadMemEx(0x40023870, 0x0004 Bytes, ..., Flags = 0x02000004) -- CPU_ReadMem(4 bytes @ 0x40023870) - Data: 00 00 00 00  returns 0x04 (0001ms, 0371ms total)
T0B04 001:170 JLINK_ReadMemEx(0x40023874, 0x0004 Bytes, ..., Flags = 0x02000004) -- CPU_ReadMem(4 bytes @ 0x40023874) - Data: 00 00 00 1E  returns 0x04 (0000ms, 0371ms total)
T0B04 001:170 JLINK_ReadMemEx(0x40023874, 0x0004 Bytes, ..., Flags = 0x02000004) -- CPU_ReadMem(4 bytes @ 0x40023874) - Data: 00 00 00 1E  returns 0x04 (0001ms, 0372ms total)
T0B04 001:171 JLINK_ReadMemEx(0x40023880, 0x0004 Bytes, ..., Flags = 0x02000004) -- CPU_ReadMem(4 bytes @ 0x40023880) - Data: 00 00 00 00  returns 0x04 (0000ms, 0372ms total)
T0B04 001:171 JLINK_ReadMemEx(0x40023880, 0x0004 Bytes, ..., Flags = 0x02000004) -- CPU_ReadMem(4 bytes @ 0x40023880) - Data: 00 00 00 00  returns 0x04 (0000ms, 0372ms total)
T0B04 001:171 JLINK_ReadMemEx(0x40023884, 0x0004 Bytes, ..., Flags = 0x02000004) -- CPU_ReadMem(4 bytes @ 0x40023884) - Data: 00 30 00 20  returns 0x04 (0001ms, 0373ms total)
T0B04 001:172 JLINK_ReadMemEx(0x40023884, 0x0004 Bytes, ..., Flags = 0x02000004) -- CPU_ReadMem(4 bytes @ 0x40023884) - Data: 00 30 00 20  returns 0x04 (0000ms, 0373ms total)
T0B04 001:249 JLINK_ReadMemEx(0x40012C00, 0x003C Bytes, ..., Flags = 0x02000004) -- CPU_ReadMem(60 bytes @ 0x40012C00) - Data: 00 00 00 00 00 00 00 00 00 00 00 00 00 00 00 00 ...  returns 0x3C (0001ms, 0374ms total)
T0B04 001:250 JLINK_ReadMemEx(0x40012C00, 0x0004 Bytes, ..., Flags = 0x02000004) -- CPU_ReadMem(4 bytes @ 0x40012C00) - Data: 00 00 00 00  returns 0x04 (0000ms, 0374ms total)
T0B04 001:250 JLINK_ReadMemEx(0x40012C04, 0x0004 Bytes, ..., Flags = 0x02000004) -- CPU_ReadMem(4 bytes @ 0x40012C04) - Data: 00 00 00 00  returns 0x04 (0001ms, 0375ms total)
T0B04 001:251 JLINK_ReadMemEx(0x40012C08, 0x0004 Bytes, ..., Flags = 0x02000004) -- CPU_ReadMem(4 bytes @ 0x40012C08) - Data: 00 00 00 00  returns 0x04 (0000ms, 0375ms total)
T0B04 001:251 JLINK_ReadMemEx(0x40012C0C, 0x0004 Bytes, ..., Flags = 0x02000004) -- CPU_ReadMem(4 bytes @ 0x40012C0C) - Data: 00 00 00 00  returns 0x04 (0000ms, 0375ms total)
T0B04 001:251 JLINK_ReadMemEx(0x40012C10, 0x0004 Bytes, ..., Flags = 0x02000004) -- CPU_ReadMem(4 bytes @ 0x40012C10) - Data: 00 00 00 00  returns 0x04 (0001ms, 0376ms total)
T0B04 001:252 JLINK_ReadMemEx(0x40012C14, 0x0004 Bytes, ..., Flags = 0x02000004) -- CPU_ReadMem(4 bytes @ 0x40012C14) - Data: 00 00 00 00  returns 0x04 (0000ms, 0376ms total)
T0B04 001:252 JLINK_ReadMemEx(0x40012C18, 0x0004 Bytes, ..., Flags = 0x02000004) -- CPU_ReadMem(4 bytes @ 0x40012C18) - Data: 00 00 00 00  returns 0x04 (0001ms, 0377ms total)
T0B04 001:253 JLINK_ReadMemEx(0x40012C1C, 0x0004 Bytes, ..., Flags = 0x02000004) -- CPU_ReadMem(4 bytes @ 0x40012C1C) - Data: 00 00 00 00  returns 0x04 (0000ms, 0377ms total)
T0B04 001:253 JLINK_ReadMemEx(0x40012C20, 0x0004 Bytes, ..., Flags = 0x02000004) -- CPU_ReadMem(4 bytes @ 0x40012C20) - Data: 00 00 00 00  returns 0x04 (0001ms, 0378ms total)
T0B04 001:254 JLINK_ReadMemEx(0x40012C24, 0x0004 Bytes, ..., Flags = 0x02000004) -- CPU_ReadMem(4 bytes @ 0x40012C24) - Data: 00 00 00 00  returns 0x04 (0000ms, 0378ms total)
T0B04 001:254 JLINK_ReadMemEx(0x40012C28, 0x0004 Bytes, ..., Flags = 0x02000004) -- CPU_ReadMem(4 bytes @ 0x40012C28) - Data: 00 00 00 00  returns 0x04 (0001ms, 0379ms total)
T0B04 001:255 JLINK_ReadMemEx(0x40012C2C, 0x0004 Bytes, ..., Flags = 0x02000004) -- CPU_ReadMem(4 bytes @ 0x40012C2C) - Data: 00 00 00 00  returns 0x04 (0000ms, 0379ms total)
T0B04 001:255 JLINK_ReadMemEx(0x40012C30, 0x0004 Bytes, ..., Flags = 0x02000004) -- CPU_ReadMem(4 bytes @ 0x40012C30) - Data: 00 00 00 00  returns 0x04 (0000ms, 0379ms total)
T0B04 001:255 JLINK_ReadMemEx(0x40012C34, 0x0004 Bytes, ..., Flags = 0x02000004) -- CPU_ReadMem(4 bytes @ 0x40012C34) - Data: 00 00 00 00  returns 0x04 (0001ms, 0380ms total)
T0B04 001:256 JLINK_ReadMemEx(0x40012C38, 0x0004 Bytes, ..., Flags = 0x02000004) -- CPU_ReadMem(4 bytes @ 0x40012C38) - Data: 00 00 00 00  returns 0x04 (0000ms, 0380ms total)
T0B04 001:256 JLINK_ReadMemEx(0x40012C3C, 0x0004 Bytes, ..., Flags = 0x02000004) -- CPU_ReadMem(4 bytes @ 0x40012C3C) - Data: 00 00 00 00  returns 0x04 (0001ms, 0381ms total)
T0B04 001:257 JLINK_ReadMemEx(0x40012C3C, 0x0004 Bytes, ..., Flags = 0x02000004) -- CPU_ReadMem(4 bytes @ 0x40012C3C) - Data: 00 00 00 00  returns 0x04 (0000ms, 0381ms total)
T0B04 001:257 JLINK_ReadMemEx(0x40012C48, 0x0004 Bytes, ..., Flags = 0x02000004) -- CPU_ReadMem(4 bytes @ 0x40012C48) - Data: 00 00 00 00  returns 0x04 (0000ms, 0381ms total)
T0B04 001:257 JLINK_ReadMemEx(0x40012C48, 0x0004 Bytes, ..., Flags = 0x02000004) -- CPU_ReadMem(4 bytes @ 0x40012C48) - Data: 00 00 00 00  returns 0x04 (0001ms, 0382ms total)
T0B04 001:258 JLINK_ReadMemEx(0x40012C80, 0x0004 Bytes, ..., Flags = 0x02000004) -- CPU_ReadMem(4 bytes @ 0x40012C80) - Data: 00 00 00 00  returns 0x04 (0000ms, 0382ms total)
T0B04 001:258 JLINK_ReadMemEx(0x40012C80, 0x0004 Bytes, ..., Flags = 0x02000004) -- CPU_ReadMem(4 bytes @ 0x40012C80) - Data: 00 00 00 00  returns 0x04 (0001ms, 0383ms total)
T0B04 001:344 JLINK_ReadMemEx(0x40011000, 0x0018 Bytes, ..., Flags = 0x02000004) -- CPU_ReadMem(24 bytes @ 0x40011000) - Data: 00 00 00 00 00 00 00 00 00 00 00 00 00 00 00 00 ...  returns 0x18 (0001ms, 0384ms total)
T0B04 001:345 JLINK_ReadMemEx(0x40011000, 0x0004 Bytes, ..., Flags = 0x02000004) -- CPU_ReadMem(4 bytes @ 0x40011000) - Data: 00 00 00 00  returns 0x04 (0000ms, 0384ms total)
T0B04 001:345 JLINK_ReadMemEx(0x40011004, 0x0004 Bytes, ..., Flags = 0x02000004) -- CPU_ReadMem(4 bytes @ 0x40011004) - Data: 00 00 00 00  returns 0x04 (0000ms, 0384ms total)
T0B04 001:345 JLINK_ReadMemEx(0x40011008, 0x0004 Bytes, ..., Flags = 0x02000004) -- CPU_ReadMem(4 bytes @ 0x40011008) - Data: 00 00 00 00  returns 0x04 (0001ms, 0385ms total)
T0B04 001:346 JLINK_ReadMemEx(0x4001100C, 0x0004 Bytes, ..., Flags = 0x02000004) -- CPU_ReadMem(4 bytes @ 0x4001100C) - Data: 00 00 00 00  returns 0x04 (0000ms, 0385ms total)
T0B04 001:346 JLINK_ReadMemEx(0x40011010, 0x0004 Bytes, ..., Flags = 0x02000004) -- CPU_ReadMem(4 bytes @ 0x40011010) - Data: 00 00 00 00  returns 0x04 (0000ms, 0385ms total)
T0B04 001:346 JLINK_ReadMemEx(0x40011014, 0x0004 Bytes, ..., Flags = 0x02000004) -- CPU_ReadMem(4 bytes @ 0x40011014) - Data: 00 00 00 00  returns 0x04 (0001ms, 0386ms total)
T0B04 001:347 JLINK_ReadMemEx(0x40011018, 0x0004 Bytes, ..., Flags = 0x02000004) -- CPU_ReadMem(4 bytes @ 0x40011018) - Data: 00 00 00 00  returns 0x04 (0000ms, 0386ms total)
T0B04 001:347 JLINK_ReadMemEx(0x40011018, 0x0004 Bytes, ..., Flags = 0x02000004) -- CPU_ReadMem(4 bytes @ 0x40011018) - Data: 00 00 00 00  returns 0x04 (0001ms, 0387ms total)
T0B04 005:175 JLINK_ReadReg(R0)  returns 0x00000000 (0001ms, 0388ms total)
T0B04 005:176 JLINK_ReadReg(R1)  returns 0x00000000 (0000ms, 0388ms total)
T0B04 005:176 JLINK_ReadReg(R2)  returns 0x00000000 (0000ms, 0388ms total)
T0B04 005:176 JLINK_ReadReg(R3)  returns 0x00000000 (0000ms, 0388ms total)
T0B04 005:176 JLINK_ReadReg(R4)  returns 0x00000000 (0000ms, 0388ms total)
T0B04 005:176 JLINK_ReadReg(R5)  returns 0x00000000 (0000ms, 0388ms total)
T0B04 005:176 JLINK_ReadReg(R6)  returns 0x00000000 (0000ms, 0388ms total)
T0B04 005:176 JLINK_ReadReg(R7)  returns 0x00000000 (0000ms, 0388ms total)
T0B04 005:176 JLINK_ReadReg(R8)  returns 0x00000000 (0000ms, 0388ms total)
T0B04 005:176 JLINK_ReadReg(R9)  returns 0x00000000 (0000ms, 0388ms total)
T0B04 005:176 JLINK_ReadReg(R10)  returns 0x00000000 (0000ms, 0388ms total)
T0B04 005:176 JLINK_ReadReg(R11)  returns 0x00000000 (0000ms, 0388ms total)
T0B04 005:176 JLINK_ReadReg(R12)  returns 0x00000000 (0000ms, 0388ms total)
T0B04 005:176 JLINK_ReadReg(R13 (SP))  returns 0x20000680 (0000ms, 0388ms total)
T0B04 005:176 JLINK_ReadReg(R14)  returns 0xFFFFFFFF (0000ms, 0388ms total)
T0B04 005:176 JLINK_ReadReg(R15 (PC))  returns 0x08000228 (0000ms, 0388ms total)
T0B04 005:176 JLINK_ReadReg(XPSR)  returns 0x01000000 (0000ms, 0388ms total)
T0B04 005:176 JLINK_ReadReg(MSP)  returns 0x20000680 (0000ms, 0388ms total)
T0B04 005:176 JLINK_ReadReg(PSP)  returns 0x00000000 (0000ms, 0388ms total)
T0B04 005:176 JLINK_ReadReg(CFBP)  returns 0x00000000 (0000ms, 0388ms total)
T0B04 005:176 JLINK_ReadReg(FPSCR)  returns 0x00000000 (0006ms, 0394ms total)
T0B04 005:182 JLINK_ReadReg(FPS0)  returns 0x00000000 (0000ms, 0394ms total)
T0B04 005:182 JLINK_ReadReg(FPS1)  returns 0x00000000 (0000ms, 0394ms total)
T0B04 005:182 JLINK_ReadReg(FPS2)  returns 0x00000000 (0000ms, 0394ms total)
T0B04 005:182 JLINK_ReadReg(FPS3)  returns 0x00000000 (0000ms, 0394ms total)
T0B04 005:182 JLINK_ReadReg(FPS4)  returns 0x00000000 (0000ms, 0394ms total)
T0B04 005:182 JLINK_ReadReg(FPS5)  returns 0x00000000 (0000ms, 0394ms total)
T0B04 005:182 JLINK_ReadReg(FPS6)  returns 0x00000000 (0000ms, 0394ms total)
T0B04 005:182 JLINK_ReadReg(FPS7)  returns 0x00000000 (0000ms, 0394ms total)
T0B04 005:182 JLINK_ReadReg(FPS8)  returns 0x00000000 (0000ms, 0394ms total)
T0B04 005:182 JLINK_ReadReg(FPS9)  returns 0x00000000 (0000ms, 0394ms total)
T0B04 005:182 JLINK_ReadReg(FPS10)  returns 0x00000000 (0000ms, 0394ms total)
T0B04 005:182 JLINK_ReadReg(FPS11)  returns 0x00000000 (0000ms, 0394ms total)
T0B04 005:182 JLINK_ReadReg(FPS12)  returns 0x00000000 (0000ms, 0394ms total)
T0B04 005:182 JLINK_ReadReg(FPS13)  returns 0x00000000 (0000ms, 0394ms total)
T0B04 005:182 JLINK_ReadReg(FPS14)  returns 0x00000000 (0000ms, 0394ms total)
T0B04 005:182 JLINK_ReadReg(FPS15)  returns 0x00000000 (0000ms, 0394ms total)
T0B04 005:182 JLINK_ReadReg(FPS16)  returns 0x00000000 (0000ms, 0394ms total)
T0B04 005:182 JLINK_ReadReg(FPS17)  returns 0x00000000 (0000ms, 0394ms total)
T0B04 005:182 JLINK_ReadReg(FPS18)  returns 0x00000000 (0000ms, 0394ms total)
T0B04 005:182 JLINK_ReadReg(FPS19)  returns 0x00000000 (0000ms, 0394ms total)
T0B04 005:182 JLINK_ReadReg(FPS20)  returns 0x00000000 (0001ms, 0395ms total)
T0B04 005:183 JLINK_ReadReg(FPS21)  returns 0x00000000 (0000ms, 0395ms total)
T0B04 005:183 JLINK_ReadReg(FPS22)  returns 0x00000000 (0000ms, 0395ms total)
T0B04 005:183 JLINK_ReadReg(FPS23)  returns 0x00000000 (0000ms, 0395ms total)
T0B04 005:183 JLINK_ReadReg(FPS24)  returns 0x00000000 (0000ms, 0395ms total)
T0B04 005:183 JLINK_ReadReg(FPS25)  returns 0x00000000 (0000ms, 0395ms total)
T0B04 005:183 JLINK_ReadReg(FPS26)  returns 0x00000000 (0000ms, 0395ms total)
T0B04 005:183 JLINK_ReadReg(FPS27)  returns 0x00000000 (0000ms, 0395ms total)
T0B04 005:183 JLINK_ReadReg(FPS28)  returns 0x00000000 (0000ms, 0395ms total)
T0B04 005:183 JLINK_ReadReg(FPS29)  returns 0x00000000 (0000ms, 0395ms total)
T0B04 005:183 JLINK_ReadReg(FPS30)  returns 0x00000000 (0000ms, 0395ms total)
T0B04 005:183 JLINK_ReadReg(FPS31)  returns 0x00000000 (0000ms, 0395ms total)
T2A44 005:698 JLINK_ReadMemEx(0x08000228, 0x0002 Bytes, ..., Flags = 0x02000000) -- Read from C cache (2 bytes @ 0x08000228) - Data: 09 48  returns 0x02 (0000ms, 0395ms total)
T2A44 005:698 JLINK_SetBPEx(Addr = 0x08000CE0, Type = 0xFFFFFFF2)  returns 0x00000001 (0000ms, 0395ms total)
T2A44 005:698 JLINK_SetBPEx(Addr = 0x08000A56, Type = 0xFFFFFFF2)  returns 0x00000002 (0001ms, 0396ms total)
T2A44 005:699 JLINK_SetBPEx(Addr = 0x08000D52, Type = 0xFFFFFFF2)  returns 0x00000003 (0000ms, 0396ms total)
T2A44 005:699 JLINK_Go() -- CPU_WriteMem(4 bytes @ 0xE0002000) -- CPU_WriteMem(4 bytes @ 0xE0002000) -- CPU_WriteMem(4 bytes @ 0xE0002000) -- CPU_ReadMem(4 bytes @ 0xE0001000) -- CPU_WriteMem(4 bytes @ 0xE0002008) -- CPU_WriteMem(4 bytes @ 0xE000200C) -- CPU_WriteMem(4 bytes @ 0xE0002010) -- CPU_WriteMem(4 bytes @ 0xE0002014) -- CPU_WriteMem(4 bytes @ 0xE0002018) -- CPU_WriteMem(4 bytes @ 0xE000201C) -- CPU_WriteMem(4 bytes @ 0xE0001004) (0005ms, 0401ms total)
T2A44 005:805 JLINK_IsHalted()  returns TRUE (0003ms, 0404ms total)
T2A44 005:808 JLINK_Halt()  returns 0x00 (0000ms, 0401ms total)
T2A44 005:808 JLINK_IsHalted()  returns TRUE (0000ms, 0401ms total)
T2A44 005:808 JLINK_IsHalted()  returns TRUE (0000ms, 0401ms total)
T2A44 005:808 JLINK_IsHalted()  returns TRUE (0000ms, 0401ms total)
T2A44 005:808 JLINK_ReadReg(R15 (PC))  returns 0x08000CE0 (0000ms, 0401ms total)
T2A44 005:808 JLINK_ReadReg(XPSR)  returns 0x21000000 (0000ms, 0401ms total)
T2A44 005:808 JLINK_ClrBPEx(BPHandle = 0x00000001)  returns 0x00 (0000ms, 0401ms total)
T2A44 005:808 JLINK_ClrBPEx(BPHandle = 0x00000002)  returns 0x00 (0000ms, 0401ms total)
T2A44 005:808 JLINK_ClrBPEx(BPHandle = 0x00000003)  returns 0x00 (0000ms, 0401ms total)
T2A44 005:808 JLINK_ReadMemU32(0xE000ED30, 0x0001 Items, ...) -- CPU_ReadMem(4 bytes @ 0xE000ED30) - Data: 02 00 00 00  returns 0x01 (0000ms, 0401ms total)
T2A44 005:808 JLINK_ReadMemU32(0xE0001028, 0x0001 Items, ...) -- CPU_ReadMem(4 bytes @ 0xE0001028) - Data: 00 00 00 00  returns 0x01 (0001ms, 0402ms total)
T2A44 005:809 JLINK_ReadMemU32(0xE0001038, 0x0001 Items, ...) -- CPU_ReadMem(4 bytes @ 0xE0001038) - Data: 00 02 00 00  returns 0x01 (0000ms, 0402ms total)
T2A44 005:809 JLINK_ReadMemU32(0xE0001048, 0x0001 Items, ...) -- CPU_ReadMem(4 bytes @ 0xE0001048) - Data: 00 00 00 00  returns 0x01 (0001ms, 0403ms total)
T2A44 005:810 JLINK_ReadMemU32(0xE0001058, 0x0001 Items, ...) -- CPU_ReadMem(4 bytes @ 0xE0001058) - Data: 00 00 00 00  returns 0x01 (0000ms, 0403ms total)
T2A44 005:810 JLINK_ReadReg(R0)  returns 0x20000080 (0000ms, 0403ms total)
T2A44 005:810 JLINK_ReadReg(R1)  returns 0x20000280 (0000ms, 0403ms total)
T2A44 005:810 JLINK_ReadReg(R2)  returns 0x20000280 (0000ms, 0403ms total)
T2A44 005:810 JLINK_ReadReg(R3)  returns 0x20000280 (0000ms, 0403ms total)
T2A44 005:810 JLINK_ReadReg(R4)  returns 0x00000000 (0000ms, 0403ms total)
T2A44 005:810 JLINK_ReadReg(R5)  returns 0x2000001C (0001ms, 0404ms total)
T2A44 005:811 JLINK_ReadReg(R6)  returns 0x00000000 (0000ms, 0404ms total)
T2A44 005:811 JLINK_ReadReg(R7)  returns 0x00000000 (0000ms, 0404ms total)
T2A44 005:811 JLINK_ReadReg(R8)  returns 0x00000000 (0000ms, 0404ms total)
T2A44 005:811 JLINK_ReadReg(R9)  returns 0x00000000 (0000ms, 0404ms total)
T2A44 005:811 JLINK_ReadReg(R10)  returns 0x08000DBC (0000ms, 0404ms total)
T2A44 005:811 JLINK_ReadReg(R11)  returns 0x00000000 (0000ms, 0404ms total)
T2A44 005:811 JLINK_ReadReg(R12)  returns 0x2000005C (0000ms, 0404ms total)
T2A44 005:811 JLINK_ReadReg(R13 (SP))  returns 0x20000680 (0000ms, 0404ms total)
T2A44 005:811 JLINK_ReadReg(R14)  returns 0x08000217 (0000ms, 0404ms total)
T2A44 005:811 JLINK_ReadReg(R15 (PC))  returns 0x08000CE0 (0000ms, 0404ms total)
T2A44 005:811 JLINK_ReadReg(XPSR)  returns 0x21000000 (0000ms, 0404ms total)
T2A44 005:811 JLINK_ReadReg(MSP)  returns 0x20000680 (0000ms, 0404ms total)
T2A44 005:811 JLINK_ReadReg(PSP)  returns 0x00000000 (0000ms, 0404ms total)
T2A44 005:811 JLINK_ReadReg(CFBP)  returns 0x04000000 (0000ms, 0404ms total)
T2A44 005:811 JLINK_ReadReg(FPSCR)  returns 0x03000000 (0004ms, 0408ms total)
T2A44 005:816 JLINK_ReadReg(FPS0)  returns 0x00000000 (0000ms, 0408ms total)
T2A44 005:816 JLINK_ReadReg(FPS1)  returns 0x00000000 (0000ms, 0408ms total)
T2A44 005:816 JLINK_ReadReg(FPS2)  returns 0x00000000 (0000ms, 0408ms total)
T2A44 005:816 JLINK_ReadReg(FPS3)  returns 0x00000000 (0000ms, 0408ms total)
T2A44 005:816 JLINK_ReadReg(FPS4)  returns 0x00000000 (0000ms, 0408ms total)
T2A44 005:816 JLINK_ReadReg(FPS5)  returns 0x00000000 (0000ms, 0408ms total)
T2A44 005:816 JLINK_ReadReg(FPS6)  returns 0x00000000 (0000ms, 0408ms total)
T2A44 005:816 JLINK_ReadReg(FPS7)  returns 0x00000000 (0000ms, 0408ms total)
T2A44 005:816 JLINK_ReadReg(FPS8)  returns 0x00000000 (0000ms, 0408ms total)
T2A44 005:816 JLINK_ReadReg(FPS9)  returns 0x00000000 (0000ms, 0408ms total)
T2A44 005:816 JLINK_ReadReg(FPS10)  returns 0x00000000 (0000ms, 0408ms total)
T2A44 005:816 JLINK_ReadReg(FPS11)  returns 0x00000000 (0000ms, 0408ms total)
T2A44 005:816 JLINK_ReadReg(FPS12)  returns 0x00000000 (0000ms, 0408ms total)
T2A44 005:816 JLINK_ReadReg(FPS13)  returns 0x00000000 (0000ms, 0408ms total)
T2A44 005:816 JLINK_ReadReg(FPS14)  returns 0x00000000 (0000ms, 0408ms total)
T2A44 005:816 JLINK_ReadReg(FPS15)  returns 0x00000000 (0000ms, 0408ms total)
T2A44 005:816 JLINK_ReadReg(FPS16)  returns 0x00000000 (0000ms, 0408ms total)
T2A44 005:816 JLINK_ReadReg(FPS17)  returns 0x00000000 (0000ms, 0408ms total)
T2A44 005:816 JLINK_ReadReg(FPS18)  returns 0x00000000 (0000ms, 0408ms total)
T2A44 005:816 JLINK_ReadReg(FPS19)  returns 0x00000000 (0000ms, 0408ms total)
T2A44 005:816 JLINK_ReadReg(FPS20)  returns 0x00000000 (0000ms, 0408ms total)
T2A44 005:816 JLINK_ReadReg(FPS21)  returns 0x00000000 (0001ms, 0409ms total)
T2A44 005:817 JLINK_ReadReg(FPS22)  returns 0x00000000 (0000ms, 0409ms total)
T2A44 005:817 JLINK_ReadReg(FPS23)  returns 0x00000000 (0000ms, 0409ms total)
T2A44 005:817 JLINK_ReadReg(FPS24)  returns 0x00000000 (0000ms, 0409ms total)
T2A44 005:817 JLINK_ReadReg(FPS25)  returns 0x00000000 (0000ms, 0409ms total)
T2A44 005:817 JLINK_ReadReg(FPS26)  returns 0x00000000 (0000ms, 0409ms total)
T2A44 005:817 JLINK_ReadReg(FPS27)  returns 0x00000000 (0000ms, 0409ms total)
T2A44 005:817 JLINK_ReadReg(FPS28)  returns 0x00000000 (0000ms, 0409ms total)
T2A44 005:817 JLINK_ReadReg(FPS29)  returns 0x00000000 (0000ms, 0409ms total)
T2A44 005:817 JLINK_ReadReg(FPS30)  returns 0x00000000 (0000ms, 0409ms total)
T2A44 005:817 JLINK_ReadReg(FPS31)  returns 0x00000000 (0000ms, 0409ms total)
T0B04 005:819 JLINK_ReadMemEx(0x20000674, 0x000B Bytes, ..., Flags = 0x02000000) -- CPU_ReadMem(64 bytes @ 0x20000640) -- Updating C cache (64 bytes @ 0x20000640) -- Read from C cache (11 bytes @ 0x20000674) - Data: 80 02 00 20 00 00 00 00 13 02 00  returns 0x0B (0001ms, 0410ms total)
T0B04 005:820 JLINK_ReadMemEx(0x20000668, 0x000B Bytes, ..., Flags = 0x02000000) -- Read from C cache (11 bytes @ 0x20000668) - Data: 80 00 00 20 80 02 00 20 80 02 00  returns 0x0B (0000ms, 0410ms total)
T0B04 005:835 JLINK_ReadMemEx(0x40020C00, 0x0014 Bytes, ..., Flags = 0x02000004) -- CPU_ReadMem(20 bytes @ 0x40020C00) - Data: 00 00 00 00 00 00 00 00 00 00 00 00 00 00 00 00 ...  returns 0x14 (0001ms, 0411ms total)
T0B04 005:836 JLINK_ReadMemEx(0x40020C00, 0x0004 Bytes, ..., Flags = 0x02000004) -- CPU_ReadMem(4 bytes @ 0x40020C00) - Data: 00 00 00 00  returns 0x04 (0000ms, 0411ms total)
T0B04 005:836 JLINK_ReadMemEx(0x40020C04, 0x0004 Bytes, ..., Flags = 0x02000004) -- CPU_ReadMem(4 bytes @ 0x40020C04) - Data: 00 00 00 00  returns 0x04 (0001ms, 0412ms total)
T0B04 005:837 JLINK_ReadMemEx(0x40020C08, 0x0004 Bytes, ..., Flags = 0x02000004) -- CPU_ReadMem(4 bytes @ 0x40020C08) - Data: 00 00 00 00  returns 0x04 (0000ms, 0412ms total)
T0B04 005:837 JLINK_ReadMemEx(0x40020C0C, 0x0004 Bytes, ..., Flags = 0x02000004) -- CPU_ReadMem(4 bytes @ 0x40020C0C) - Data: 00 00 00 00  returns 0x04 (0001ms, 0413ms total)
T0B04 005:838 JLINK_ReadMemEx(0x40020C10, 0x0004 Bytes, ..., Flags = 0x02000004) -- CPU_ReadMem(4 bytes @ 0x40020C10) - Data: 00 00 00 00  returns 0x04 (0000ms, 0413ms total)
T0B04 005:838 JLINK_ReadMemEx(0x40020C14, 0x0004 Bytes, ..., Flags = 0x02000004) -- CPU_ReadMem(4 bytes @ 0x40020C14) - Data: 00 00 00 00  returns 0x04 (0001ms, 0414ms total)
T0B04 005:839 JLINK_ReadMemEx(0x40020C14, 0x0004 Bytes, ..., Flags = 0x02000004) -- CPU_ReadMem(4 bytes @ 0x40020C14) - Data: 00 00 00 00  returns 0x04 (0000ms, 0414ms total)
T0B04 005:839 JLINK_ReadMemEx(0x40020C1C, 0x0008 Bytes, ..., Flags = 0x02000004) -- CPU_ReadMem(8 bytes @ 0x40020C1C) - Data: 00 00 00 00 00 00 00 00  returns 0x08 (0000ms, 0414ms total)
T0B04 005:839 JLINK_ReadMemEx(0x40020C1C, 0x0004 Bytes, ..., Flags = 0x02000004) -- CPU_ReadMem(4 bytes @ 0x40020C1C) - Data: 00 00 00 00  returns 0x04 (0001ms, 0415ms total)
T0B04 005:840 JLINK_ReadMemEx(0x40020C20, 0x0004 Bytes, ..., Flags = 0x02000004) -- CPU_ReadMem(4 bytes @ 0x40020C20) - Data: 00 00 00 00  returns 0x04 (0000ms, 0415ms total)
T0B04 005:840 JLINK_ReadMemEx(0x40020C24, 0x0004 Bytes, ..., Flags = 0x02000004) -- CPU_ReadMem(4 bytes @ 0x40020C24) - Data: 00 00 00 00  returns 0x04 (0001ms, 0416ms total)
T0B04 005:841 JLINK_ReadMemEx(0x40020C24, 0x0004 Bytes, ..., Flags = 0x02000004) -- CPU_ReadMem(4 bytes @ 0x40020C24) - Data: 00 00 00 00  returns 0x04 (0000ms, 0416ms total)
T0B04 005:842 JLINK_ReadMemEx(0x40020800, 0x0014 Bytes, ..., Flags = 0x02000004) -- CPU_ReadMem(20 bytes @ 0x40020800) - Data: 00 00 00 00 00 00 00 00 00 00 00 00 00 00 00 00 ...  returns 0x14 (0001ms, 0417ms total)
T0B04 005:843 JLINK_ReadMemEx(0x40020800, 0x0004 Bytes, ..., Flags = 0x02000004) -- CPU_ReadMem(4 bytes @ 0x40020800) - Data: 00 00 00 00  returns 0x04 (0000ms, 0417ms total)
T0B04 005:843 JLINK_ReadMemEx(0x40020804, 0x0004 Bytes, ..., Flags = 0x02000004) -- CPU_ReadMem(4 bytes @ 0x40020804) - Data: 00 00 00 00  returns 0x04 (0001ms, 0418ms total)
T0B04 005:844 JLINK_ReadMemEx(0x40020808, 0x0004 Bytes, ..., Flags = 0x02000004) -- CPU_ReadMem(4 bytes @ 0x40020808) - Data: 00 00 00 00  returns 0x04 (0000ms, 0418ms total)
T0B04 005:844 JLINK_ReadMemEx(0x4002080C, 0x0004 Bytes, ..., Flags = 0x02000004) -- CPU_ReadMem(4 bytes @ 0x4002080C) - Data: 00 00 00 00  returns 0x04 (0001ms, 0419ms total)
T0B04 005:845 JLINK_ReadMemEx(0x40020810, 0x0004 Bytes, ..., Flags = 0x02000004) -- CPU_ReadMem(4 bytes @ 0x40020810) - Data: 00 00 00 00  returns 0x04 (0000ms, 0419ms total)
T0B04 005:845 JLINK_ReadMemEx(0x40020814, 0x0004 Bytes, ..., Flags = 0x02000004) -- CPU_ReadMem(4 bytes @ 0x40020814) - Data: 00 00 00 00  returns 0x04 (0001ms, 0420ms total)
T0B04 005:846 JLINK_ReadMemEx(0x40020814, 0x0004 Bytes, ..., Flags = 0x02000004) -- CPU_ReadMem(4 bytes @ 0x40020814) - Data: 00 00 00 00  returns 0x04 (0000ms, 0420ms total)
T0B04 005:846 JLINK_ReadMemEx(0x4002081C, 0x0008 Bytes, ..., Flags = 0x02000004) -- CPU_ReadMem(8 bytes @ 0x4002081C) - Data: 00 00 00 00 00 00 00 00  returns 0x08 (0001ms, 0421ms total)
T0B04 005:847 JLINK_ReadMemEx(0x4002081C, 0x0004 Bytes, ..., Flags = 0x02000004) -- CPU_ReadMem(4 bytes @ 0x4002081C) - Data: 00 00 00 00  returns 0x04 (0000ms, 0421ms total)
T0B04 005:847 JLINK_ReadMemEx(0x40020820, 0x0004 Bytes, ..., Flags = 0x02000004) -- CPU_ReadMem(4 bytes @ 0x40020820) - Data: 00 00 00 00  returns 0x04 (0001ms, 0422ms total)
T0B04 005:848 JLINK_ReadMemEx(0x40020824, 0x0004 Bytes, ..., Flags = 0x02000004) -- CPU_ReadMem(4 bytes @ 0x40020824) - Data: 00 00 00 00  returns 0x04 (0000ms, 0422ms total)
T0B04 005:848 JLINK_ReadMemEx(0x40020824, 0x0004 Bytes, ..., Flags = 0x02000004) -- CPU_ReadMem(4 bytes @ 0x40020824) - Data: 00 00 00 00  returns 0x04 (0000ms, 0422ms total)
T0B04 005:849 JLINK_ReadMemEx(0x40012C00, 0x003C Bytes, ..., Flags = 0x02000004) -- CPU_ReadMem(60 bytes @ 0x40012C00) - Data: 00 00 00 00 00 00 00 00 00 00 00 00 00 00 00 00 ...  returns 0x3C (0001ms, 0423ms total)
T0B04 005:850 JLINK_ReadMemEx(0x40012C00, 0x0004 Bytes, ..., Flags = 0x02000004) -- CPU_ReadMem(4 bytes @ 0x40012C00) - Data: 00 00 00 00  returns 0x04 (0001ms, 0424ms total)
T0B04 005:851 JLINK_ReadMemEx(0x40012C04, 0x0004 Bytes, ..., Flags = 0x02000004) -- CPU_ReadMem(4 bytes @ 0x40012C04) - Data: 00 00 00 00  returns 0x04 (0001ms, 0425ms total)
T0B04 005:852 JLINK_ReadMemEx(0x40012C08, 0x0004 Bytes, ..., Flags = 0x02000004) -- CPU_ReadMem(4 bytes @ 0x40012C08) - Data: 00 00 00 00  returns 0x04 (0000ms, 0425ms total)
T0B04 005:852 JLINK_ReadMemEx(0x40012C0C, 0x0004 Bytes, ..., Flags = 0x02000004) -- CPU_ReadMem(4 bytes @ 0x40012C0C) - Data: 00 00 00 00  returns 0x04 (0000ms, 0425ms total)
T0B04 005:852 JLINK_ReadMemEx(0x40012C10, 0x0004 Bytes, ..., Flags = 0x02000004) -- CPU_ReadMem(4 bytes @ 0x40012C10) - Data: 00 00 00 00  returns 0x04 (0001ms, 0426ms total)
T0B04 005:853 JLINK_ReadMemEx(0x40012C14, 0x0004 Bytes, ..., Flags = 0x02000004) -- CPU_ReadMem(4 bytes @ 0x40012C14) - Data: 00 00 00 00  returns 0x04 (0001ms, 0427ms total)
T0B04 005:854 JLINK_ReadMemEx(0x40012C18, 0x0004 Bytes, ..., Flags = 0x02000004) -- CPU_ReadMem(4 bytes @ 0x40012C18) - Data: 00 00 00 00  returns 0x04 (0000ms, 0427ms total)
T0B04 005:854 JLINK_ReadMemEx(0x40012C1C, 0x0004 Bytes, ..., Flags = 0x02000004) -- CPU_ReadMem(4 bytes @ 0x40012C1C) - Data: 00 00 00 00  returns 0x04 (0001ms, 0428ms total)
T0B04 005:855 JLINK_ReadMemEx(0x40012C20, 0x0004 Bytes, ..., Flags = 0x02000004) -- CPU_ReadMem(4 bytes @ 0x40012C20) - Data: 00 00 00 00  returns 0x04 (0000ms, 0428ms total)
T0B04 005:855 JLINK_ReadMemEx(0x40012C24, 0x0004 Bytes, ..., Flags = 0x02000004) -- CPU_ReadMem(4 bytes @ 0x40012C24) - Data: 00 00 00 00  returns 0x04 (0000ms, 0428ms total)
T0B04 005:855 JLINK_ReadMemEx(0x40012C28, 0x0004 Bytes, ..., Flags = 0x02000004) -- CPU_ReadMem(4 bytes @ 0x40012C28) - Data: 00 00 00 00  returns 0x04 (0001ms, 0429ms total)
